
T0340 000:377 SEGGER J-Link V5.02f Log File (0002ms, 0351ms total)
T0340 000:377 DLL Compiled: Oct  2 2015 20:51:34 (0002ms, 0351ms total)
T0340 000:377 Logging started @ 2016-05-08 18:43 (0002ms, 0351ms total)
T0340 000:379 JLINK_SetWarnOutHandler(...) (0000ms, 0351ms total)
T0340 000:379 JLINK_OpenEx(...)
Firmware: J-Link V9 compiled Jan 21 2016 18:49:33
Hardware: V9.10
S/N: 59106098
Feature(s): GDB, RDI, FlashDL, FlashBP, JFlash  returns O.K. (0338ms, 0689ms total)
T0340 000:717 JLINK_SetErrorOutHandler(...) (0000ms, 0689ms total)
T0340 000:717 JLINK_ExecCommand("ProjectFile = "F:\eb100\eb100f\code\Project\RVMDK£¨uv4£©\JLinkSettings.ini"", ...)  returns 0x00 (0005ms, 0694ms total)
T0340 000:737 JLINK_ExecCommand("Device = STM32F103RC", ...)Device "STM32F103RC" selected.  returns 0x00 (0020ms, 0714ms total)
T0340 000:757 JLINK_ExecCommand("DisableConnectionTimeout", ...)  returns 0x01 (0000ms, 0714ms total)
T0340 000:757 JLINK_GetHardwareVersion()  returns 0x16378 (0000ms, 0714ms total)
T0340 000:757 JLINK_GetDLLVersion()  returns 50206 (0000ms, 0714ms total)
T0340 000:757 JLINK_GetFirmwareString(...) (0000ms, 0714ms total)
T0340 000:771 JLINK_GetDLLVersion()  returns 50206 (0000ms, 0714ms total)
T0340 000:771 JLINK_GetCompileDateTime() (0000ms, 0714ms total)
T0340 000:775 JLINK_GetFirmwareString(...) (0000ms, 0714ms total)
T0340 000:780 JLINK_GetHardwareVersion()  returns 0x16378 (0000ms, 0714ms total)
T0340 000:796 JLINK_TIF_Select(JLINKARM_TIF_SWD)  returns 0x00 (0016ms, 0730ms total)
T0340 000:812 JLINK_SetSpeed(1000) (0002ms, 0732ms total)
T0340 000:814 JLINK_GetId() >0x108 TIF>Found SWD-DP with ID 0x1BA01477 >0x0D TIF> >0x28 TIF> >0x0D TIF> >0x28 TIF> >0x0D TIF> >0x21 TIF> >0x0D TIF> >0x28 TIF> >0x0D TIF> >0x28 TIF> >0x0D TIF> >0x28 TIF> >0x0D TIF> >0x21 TIF> >0x0D TIF> >0x21 TIF> >0x0D TIF> >0x28 TIF> >0x0D TIF> >0x21 TIF> >0x0D TIF> >0x21 TIF> >0x0D TIF> >0x28 TIF> >0x0D TIF> >0x21 TIF> >0x0D TIF> >0x21 TIF> >0x0D TIF> >0x28 TIF> >0x0D TIF> >0x21 TIF> >0x0D TIF> >0x21 TIF> >0x108 TIF>Found SWD-DP with ID 0x1BA01477 >0x0D TIF> >0x21 TIF>
 >0x0D TIF> >0x28 TIF> >0x0D TIF> >0x28 TIF> >0x0D TIF> >0x21 TIF> >0x0D TIF> >0x28 TIF> >0x0D TIF> >0x21 TIF> >0x0D TIF> >0x21 TIF> >0x0D TIF> >0x21 TIF> >0x0D TIF> >0x21 TIF> >0x0D TIF> >0x28 TIF> >0x0D TIF> >0x28 TIF> >0x0D TIF> >0x21 TIF> >0x0D TIF> >0x28 TIF> >0x0D TIF> >0x28 TIF> >0x0D TIF> >0x28 TIF> >0x0D TIF> >0x21 TIF> >0x0D TIF> >0x21 TIF> >0x0D TIF> >0x28 TIF> >0x0D TIF> >0x21 TIF> >0x0D TIF> >0x21 TIF>Found Cortex-M3 r1p1, Little endian. -- CPU_ReadMem(4 bytes @ 0xE000EDF0)
 -- CPU_ReadMem(4 bytes @ 0xE0002000)FPUnit: 6 code (BP) slots and 2 literal slots -- CPU_ReadMem(4 bytes @ 0xE000EDFC) -- CPU_ReadMem(4 bytes @ 0xE0001000) -- CPU_WriteMem(4 bytes @ 0xE0001000) -- CPU_ReadMem(4 bytes @ 0xE000ED88) -- CPU_WriteMem(4 bytes @ 0xE000ED88) -- CPU_ReadMem(4 bytes @ 0xE000ED88) -- CPU_WriteMem(4 bytes @ 0xE000ED88)CoreSight components:ROMTbl 0 @ E00FF000 -- CPU_ReadMem(16 bytes @ 0xE00FF000) -- CPU_ReadMem(16 bytes @ 0xE000EFF0) -- CPU_ReadMem(16 bytes @ 0xE000EFE0)
ROMTbl 0 [0]: FFF0F000, CID: B105E00D, PID: 001BB000 SCS -- CPU_ReadMem(16 bytes @ 0xE0001FF0) -- CPU_ReadMem(16 bytes @ 0xE0001FE0)ROMTbl 0 [1]: FFF02000, CID: B105E00D, PID: 001BB002 DWT -- CPU_ReadMem(16 bytes @ 0xE0002FF0) -- CPU_ReadMem(16 bytes @ 0xE0002FE0)ROMTbl 0 [2]: FFF03000, CID: B105E00D, PID: 000BB003 FPB -- CPU_ReadMem(16 bytes @ 0xE0000FF0) -- CPU_ReadMem(16 bytes @ 0xE0000FE0)ROMTbl 0 [3]: FFF01000, CID: B105E00D, PID: 001BB001 ITM -- CPU_ReadMem(16 bytes @ 0xE00FF010)
 -- CPU_ReadMem(16 bytes @ 0xE0040FF0) -- CPU_ReadMem(16 bytes @ 0xE0040FE0)ROMTbl 0 [4]: FFF41000, CID: B105900D, PID: 001BB923 TPIU-Lite -- CPU_ReadMem(16 bytes @ 0xE0041FF0) -- CPU_ReadMem(16 bytes @ 0xE0041FE0)ROMTbl 0 [5]: FFF42000, CID: B105900D, PID: 101BB924 ETM-M3 >0x0D TIF> >0x21 TIF>  returns 0x1BA01477 (0541ms, 1273ms total)
T0340 001:355 JLINK_GetDLLVersion()  returns 50206 (0000ms, 1273ms total)
T0340 001:355 JLINK_CORE_GetFound()  returns 0x30000FF (0004ms, 1277ms total)
T0340 001:359 JLINK_GetDebugInfo(0x100) -- Value=0xE00FF003  returns 0x00 (0000ms, 1277ms total)
T0340 001:361 JLINK_GetDebugInfo(0x100) -- Value=0xE00FF003  returns 0x00 (0000ms, 1277ms total)
T0340 001:361 JLINK_GetDebugInfo(0x101) -- Value=0xE0041000  returns 0x00 (0000ms, 1277ms total)
T0340 001:361 JLINK_GetDebugInfo(0x102) -- Value=0x00000000  returns 0x00 (0000ms, 1277ms total)
T0340 001:361 JLINK_GetDebugInfo(0x103) -- Value=0xE0040000  returns 0x00 (0000ms, 1277ms total)
T0340 001:361 JLINK_GetDebugInfo(0x104) -- Value=0xE0000000  returns 0x00 (0000ms, 1277ms total)
T0340 001:361 JLINK_GetDebugInfo(0x105) -- Value=0xE0001000  returns 0x00 (0000ms, 1277ms total)
T0340 001:362 JLINK_GetDebugInfo(0x106) -- Value=0xE0002000  returns 0x00 (0000ms, 1278ms total)
T0340 001:362 JLINK_GetDebugInfo(0x107) -- Value=0xE000E000  returns 0x00 (0000ms, 1278ms total)
T0340 001:362 JLINK_GetDebugInfo(0x10C) -- Value=0xE000EDF0  returns 0x00 (0000ms, 1278ms total)
T0340 001:362 JLINK_ReadMemU32(0xE000ED00, 0x0001 Items, ...) -- CPU is running -- CPU_ReadMem(4 bytes @ 0xE000ED00) - Data: 31 C2 1F 41  returns 0x01 (0005ms, 1283ms total)
T0340 001:367 JLINK_SetResetType(JLINKARM_RESET_TYPE_NORMAL)  returns JLINKARM_RESET_TYPE_NORMAL (0000ms, 1283ms total)
T0340 001:367 JLINK_Reset() -- CPU is running -- CPU_WriteMem(4 bytes @ 0xE000EDF0) -- CPU is running -- CPU_WriteMem(4 bytes @ 0xE000EDFC) >0x35 TIF> -- CPU is running -- CPU_WriteMem(4 bytes @ 0xE000ED0C) -- CPU is running -- CPU_ReadMem(4 bytes @ 0xE000EDF0) -- CPU is running -- CPU_ReadMem(4 bytes @ 0xE000EDF0) -- CPU is running -- CPU_WriteMem(4 bytes @ 0xE000EDF0) -- CPU is running -- CPU_WriteMem(4 bytes @ 0xE000EDFC) -- CPU is running -- CPU_ReadMem(4 bytes @ 0xE000EDF0)
 -- CPU_WriteMem(4 bytes @ 0xE0002000) -- CPU_ReadMem(4 bytes @ 0xE000EDFC) -- CPU_ReadMem(4 bytes @ 0xE0001000) (0084ms, 1367ms total)
T0340 001:451 JLINK_Halt()  returns 0x00 (0000ms, 1367ms total)
T0340 001:451 JLINK_IsHalted()  returns TRUE (0000ms, 1367ms total)
T0340 001:451 JLINK_ReadMemU32(0xE000EDF0, 0x0001 Items, ...) -- CPU_ReadMem(4 bytes @ 0xE000EDF0) - Data: 03 00 03 00  returns 0x01 (0005ms, 1372ms total)
T0340 001:456 JLINK_WriteU32(0xE000EDF0, 0xA05F0003) -- CPU_WriteMem(4 bytes @ 0xE000EDF0)  returns 0x00 (0005ms, 1377ms total)
T0340 001:461 JLINK_WriteU32(0xE000EDFC, 0x01000000) -- CPU_WriteMem(4 bytes @ 0xE000EDFC)  returns 0x00 (0006ms, 1383ms total)
T0340 001:476 JLINK_GetHWStatus(...)  returns 0x00 (0004ms, 1387ms total)
T0340 001:485 JLINK_GetNumBPUnits(Type = 0xFFFFFF00)  returns 0x06 (0000ms, 1387ms total)
T0340 001:485 JLINK_GetNumBPUnits(Type = 0xF0)  returns 0x2000 (0000ms, 1387ms total)
T0340 001:485 JLINK_GetNumWPUnits()  returns 0x04 (0000ms, 1387ms total)
T0340 001:491 JLINK_GetSpeed()  returns 0x3E8 (0000ms, 1387ms total)
T0340 001:494 JLINK_ReadMemU32(0xE000E004, 0x0001 Items, ...) -- CPU_ReadMem(4 bytes @ 0xE000E004) - Data: 01 00 00 00  returns 0x01 (0005ms, 1392ms total)
T0340 001:499 JLINK_ReadMemU32(0xE000E004, 0x0001 Items, ...) -- CPU_ReadMem(4 bytes @ 0xE000E004) - Data: 01 00 00 00  returns 0x01 (0005ms, 1397ms total)
T0340 001:504 JLINK_WriteMem(0xE0001000, 0x001C Bytes, ...) - Data: 01 00 00 00 00 00 00 00 00 00 00 00 00 00 00 00 ... -- CPU_WriteMem(28 bytes @ 0xE0001000)  returns 0x1C (0006ms, 1403ms total)
T0340 001:510 JLINK_ReadMem (0xE0001000, 0x001C Bytes, ...) -- CPU_ReadMem(28 bytes @ 0xE0001000) - Data: 01 00 00 40 00 00 00 00 00 00 00 00 00 00 00 00 ...  returns 0x00 (0005ms, 1408ms total)
T0340 001:515 JLINK_Halt()  returns 0x00 (0000ms, 1408ms total)
T0340 001:515 JLINK_IsHalted()  returns TRUE (0000ms, 1408ms total)
T0340 001:518 JLINK_WriteMem(0x20000000, 0x0164 Bytes, ...) - Data: 00 BE 0A E0 0D 78 2D 06 68 40 08 24 40 00 00 D3 ... -- CPU_WriteMem(356 bytes @ 0x20000000)  returns 0x164 (0010ms, 1418ms total)
T0340 001:528 JLINK_WriteReg(R0, 0x08000000)  returns 0x00 (0000ms, 1418ms total)
T0340 001:528 JLINK_WriteReg(R1, 0x00B71B00)  returns 0x00 (0000ms, 1418ms total)
T0340 001:528 JLINK_WriteReg(R2, 0x00000001)  returns 0x00 (0000ms, 1418ms total)
T0340 001:528 JLINK_WriteReg(R3, 0x00000000)  returns 0x00 (0000ms, 1418ms total)
T0340 001:528 JLINK_WriteReg(R4, 0x00000000)  returns 0x00 (0000ms, 1418ms total)
T0340 001:528 JLINK_WriteReg(R5, 0x00000000)  returns 0x00 (0000ms, 1418ms total)
T0340 001:528 JLINK_WriteReg(R6, 0x00000000)  returns 0x00 (0000ms, 1418ms total)
T0340 001:528 JLINK_WriteReg(R7, 0x00000000)  returns 0x00 (0000ms, 1418ms total)
T0340 001:528 JLINK_WriteReg(R8, 0x00000000)  returns 0x00 (0000ms, 1418ms total)
T0340 001:528 JLINK_WriteReg(R9, 0x20000160)  returns 0x00 (0000ms, 1418ms total)
T0340 001:528 JLINK_WriteReg(R10, 0x00000000)  returns 0x00 (0000ms, 1418ms total)
T0340 001:528 JLINK_WriteReg(R11, 0x00000000)  returns 0x00 (0001ms, 1419ms total)
T0340 001:529 JLINK_WriteReg(R12, 0x00000000)  returns 0x00 (0000ms, 1419ms total)
T0340 001:529 JLINK_WriteReg(R13 (SP), 0x20000800)  returns 0x00 (0000ms, 1419ms total)
T0340 001:529 JLINK_WriteReg(R14, 0x20000001)  returns 0x00 (0000ms, 1419ms total)
T0340 001:529 JLINK_WriteReg(R15 (PC), 0x20000038)  returns 0x00 (0000ms, 1419ms total)
T0340 001:529 JLINK_WriteReg(XPSR, 0x01000000)  returns 0x00 (0000ms, 1419ms total)
T0340 001:529 JLINK_WriteReg(MSP, 0x20000800)  returns 0x00 (0000ms, 1419ms total)
T0340 001:529 JLINK_WriteReg(PSP, 0x20000800)  returns 0x00 (0000ms, 1419ms total)
T0340 001:529 JLINK_WriteReg(CFBP, 0x00000000)  returns 0x00 (0000ms, 1419ms total)
T0340 001:529 JLINK_SetBPEx(Addr = 0x20000000, Type = 0xFFFFFFF2) -- CPU_ReadMem(2 bytes @ 0x20000000)  returns 0x00000001 (0005ms, 1424ms total)
T0340 001:534 JLINK_Go() -- CPU_WriteMem(2 bytes @ 0x20000000) -- CPU_ReadMem(4 bytes @ 0xE0001000) -- CPU_WriteMem(4 bytes @ 0xE0002008) -- CPU_WriteMem(4 bytes @ 0xE000200C) -- CPU_WriteMem(4 bytes @ 0xE0002010) -- CPU_WriteMem(4 bytes @ 0xE0002014) -- CPU_WriteMem(4 bytes @ 0xE0002018) -- CPU_WriteMem(4 bytes @ 0xE000201C) -- CPU_WriteMem(4 bytes @ 0xE0001004) (0033ms, 1457ms total)
T0340 001:567 JLINK_IsHalted() -- CPU_ReadMem(2 bytes @ 0x20000000)  returns TRUE (0020ms, 1477ms total)
T0340 001:587 JLINK_ReadReg(R15 (PC))  returns 0x20000000 (0000ms, 1457ms total)
T0340 001:587 JLINK_ClrBPEx(BPHandle = 0x00000001)  returns 0x00 (0000ms, 1457ms total)
T0340 001:587 JLINK_ReadReg(R0)  returns 0x00000000 (0000ms, 1457ms total)
T0340 001:587 JLINK_WriteReg(R0, 0x08000000)  returns 0x00 (0000ms, 1457ms total)
T0340 001:587 JLINK_WriteReg(R1, 0x00B71B00)  returns 0x00 (0000ms, 1457ms total)
T0340 001:587 JLINK_WriteReg(R2, 0x00000001)  returns 0x00 (0000ms, 1457ms total)
T0340 001:587 JLINK_WriteReg(R3, 0x00000000)  returns 0x00 (0000ms, 1457ms total)
T0340 001:587 JLINK_WriteReg(R4, 0x00000000)  returns 0x00 (0000ms, 1457ms total)
T0340 001:587 JLINK_WriteReg(R5, 0x00000000)  returns 0x00 (0000ms, 1457ms total)
T0340 001:587 JLINK_WriteReg(R6, 0x00000000)  returns 0x00 (0000ms, 1457ms total)
T0340 001:587 JLINK_WriteReg(R7, 0x00000000)  returns 0x00 (0000ms, 1457ms total)
T0340 001:587 JLINK_WriteReg(R8, 0x00000000)  returns 0x00 (0000ms, 1457ms total)
T0340 001:587 JLINK_WriteReg(R9, 0x20000160)  returns 0x00 (0001ms, 1458ms total)
T0340 001:588 JLINK_WriteReg(R10, 0x00000000)  returns 0x00 (0000ms, 1458ms total)
T0340 001:588 JLINK_WriteReg(R11, 0x00000000)  returns 0x00 (0000ms, 1458ms total)
T0340 001:588 JLINK_WriteReg(R12, 0x00000000)  returns 0x00 (0000ms, 1458ms total)
T0340 001:588 JLINK_WriteReg(R13 (SP), 0x20000800)  returns 0x00 (0000ms, 1458ms total)
T0340 001:588 JLINK_WriteReg(R14, 0x20000001)  returns 0x00 (0000ms, 1458ms total)
T0340 001:588 JLINK_WriteReg(R15 (PC), 0x2000007C)  returns 0x00 (0000ms, 1458ms total)
T0340 001:588 JLINK_WriteReg(XPSR, 0x01000000)  returns 0x00 (0000ms, 1458ms total)
T0340 001:588 JLINK_WriteReg(MSP, 0x20000800)  returns 0x00 (0000ms, 1458ms total)
T0340 001:588 JLINK_WriteReg(PSP, 0x20000800)  returns 0x00 (0000ms, 1458ms total)
T0340 001:588 JLINK_WriteReg(CFBP, 0x00000000)  returns 0x00 (0000ms, 1458ms total)
T0340 001:588 JLINK_SetBPEx(Addr = 0x20000000, Type = 0xFFFFFFF2)  returns 0x00000002 (0000ms, 1458ms total)
T0340 001:588 JLINK_Go() -- CPU_ReadMem(4 bytes @ 0xE0001000) (0015ms, 1473ms total)
T0340 001:603 JLINK_IsHalted()  returns FALSE (0005ms, 1478ms total)
T0340 001:754 JLINK_IsHalted() -- CPU_ReadMem(2 bytes @ 0x20000000)  returns TRUE (0019ms, 1492ms total)
T0340 001:773 JLINK_ReadReg(R15 (PC))  returns 0x20000000 (0000ms, 1473ms total)
T0340 001:773 JLINK_ClrBPEx(BPHandle = 0x00000002)  returns 0x00 (0000ms, 1473ms total)
T0340 001:773 JLINK_ReadReg(R0)  returns 0x00000000 (0000ms, 1473ms total)
T0340 001:825 JLINK_WriteReg(R0, 0x00000001)  returns 0x00 (0000ms, 1473ms total)
T0340 001:825 JLINK_WriteReg(R1, 0x00B71B00)  returns 0x00 (0000ms, 1473ms total)
T0340 001:825 JLINK_WriteReg(R2, 0x00000001)  returns 0x00 (0000ms, 1473ms total)
T0340 001:825 JLINK_WriteReg(R3, 0x00000000)  returns 0x00 (0001ms, 1474ms total)
T0340 001:826 JLINK_WriteReg(R4, 0x00000000)  returns 0x00 (0000ms, 1474ms total)
T0340 001:826 JLINK_WriteReg(R5, 0x00000000)  returns 0x00 (0000ms, 1474ms total)
T0340 001:826 JLINK_WriteReg(R6, 0x00000000)  returns 0x00 (0000ms, 1474ms total)
T0340 001:826 JLINK_WriteReg(R7, 0x00000000)  returns 0x00 (0000ms, 1474ms total)
T0340 001:826 JLINK_WriteReg(R8, 0x00000000)  returns 0x00 (0000ms, 1474ms total)
T0340 001:826 JLINK_WriteReg(R9, 0x20000160)  returns 0x00 (0001ms, 1475ms total)
T0340 001:827 JLINK_WriteReg(R10, 0x00000000)  returns 0x00 (0000ms, 1475ms total)
T0340 001:827 JLINK_WriteReg(R11, 0x00000000)  returns 0x00 (0000ms, 1475ms total)
T0340 001:827 JLINK_WriteReg(R12, 0x00000000)  returns 0x00 (0000ms, 1475ms total)
T0340 001:827 JLINK_WriteReg(R13 (SP), 0x20000800)  returns 0x00 (0000ms, 1475ms total)
T0340 001:827 JLINK_WriteReg(R14, 0x20000001)  returns 0x00 (0000ms, 1475ms total)
T0340 001:827 JLINK_WriteReg(R15 (PC), 0x2000006A)  returns 0x00 (0001ms, 1476ms total)
T0340 001:828 JLINK_WriteReg(XPSR, 0x01000000)  returns 0x00 (0000ms, 1476ms total)
T0340 001:828 JLINK_WriteReg(MSP, 0x20000800)  returns 0x00 (0000ms, 1476ms total)
T0340 001:828 JLINK_WriteReg(PSP, 0x20000800)  returns 0x00 (0000ms, 1476ms total)
T0340 001:828 JLINK_WriteReg(CFBP, 0x00000000)  returns 0x00 (0000ms, 1476ms total)
T0340 001:828 JLINK_SetBPEx(Addr = 0x20000000, Type = 0xFFFFFFF2)  returns 0x00000003 (0000ms, 1476ms total)
T0340 001:828 JLINK_Go() -- CPU_ReadMem(4 bytes @ 0xE0001000) (0016ms, 1492ms total)
T0340 001:844 JLINK_IsHalted() -- CPU_ReadMem(2 bytes @ 0x20000000)  returns TRUE (0020ms, 1512ms total)
T0340 001:864 JLINK_ReadReg(R15 (PC))  returns 0x20000000 (0000ms, 1492ms total)
T0340 001:864 JLINK_ClrBPEx(BPHandle = 0x00000003)  returns 0x00 (0000ms, 1492ms total)
T0340 001:864 JLINK_ReadReg(R0)  returns 0x00000000 (0000ms, 1492ms total)
T0340 001:873 JLINK_WriteMem(0x20000000, 0x0164 Bytes, ...) - Data: 00 BE 0A E0 0D 78 2D 06 68 40 08 24 40 00 00 D3 ... -- CPU_WriteMem(356 bytes @ 0x20000000)  returns 0x164 (0009ms, 1501ms total)
T0340 001:882 JLINK_WriteReg(R0, 0x08000000)  returns 0x00 (0000ms, 1501ms total)
T0340 001:882 JLINK_WriteReg(R1, 0x00B71B00)  returns 0x00 (0000ms, 1501ms total)
T0340 001:882 JLINK_WriteReg(R2, 0x00000002)  returns 0x00 (0000ms, 1501ms total)
T0340 001:882 JLINK_WriteReg(R3, 0x00000000)  returns 0x00 (0000ms, 1501ms total)
T0340 001:882 JLINK_WriteReg(R4, 0x00000000)  returns 0x00 (0000ms, 1501ms total)
T0340 001:882 JLINK_WriteReg(R5, 0x00000000)  returns 0x00 (0000ms, 1501ms total)
T0340 001:882 JLINK_WriteReg(R6, 0x00000000)  returns 0x00 (0000ms, 1501ms total)
T0340 001:882 JLINK_WriteReg(R7, 0x00000000)  returns 0x00 (0000ms, 1501ms total)
T0340 001:882 JLINK_WriteReg(R8, 0x00000000)  returns 0x00 (0000ms, 1501ms total)
T0340 001:882 JLINK_WriteReg(R9, 0x20000160)  returns 0x00 (0000ms, 1501ms total)
T0340 001:882 JLINK_WriteReg(R10, 0x00000000)  returns 0x00 (0001ms, 1502ms total)
T0340 001:883 JLINK_WriteReg(R11, 0x00000000)  returns 0x00 (0000ms, 1502ms total)
T0340 001:883 JLINK_WriteReg(R12, 0x00000000)  returns 0x00 (0000ms, 1502ms total)
T0340 001:883 JLINK_WriteReg(R13 (SP), 0x20000800)  returns 0x00 (0000ms, 1502ms total)
T0340 001:883 JLINK_WriteReg(R14, 0x20000001)  returns 0x00 (0000ms, 1502ms total)
T0340 001:883 JLINK_WriteReg(R15 (PC), 0x20000038)  returns 0x00 (0000ms, 1502ms total)
T0340 001:883 JLINK_WriteReg(XPSR, 0x01000000)  returns 0x00 (0000ms, 1502ms total)
T0340 001:883 JLINK_WriteReg(MSP, 0x20000800)  returns 0x00 (0000ms, 1502ms total)
T0340 001:883 JLINK_WriteReg(PSP, 0x20000800)  returns 0x00 (0000ms, 1502ms total)
T0340 001:883 JLINK_WriteReg(CFBP, 0x00000000)  returns 0x00 (0000ms, 1502ms total)
T0340 001:883 JLINK_SetBPEx(Addr = 0x20000000, Type = 0xFFFFFFF2) -- CPU_ReadMem(2 bytes @ 0x20000000)  returns 0x00000004 (0005ms, 1507ms total)
T0340 001:889 JLINK_Go() -- CPU_WriteMem(2 bytes @ 0x20000000) -- CPU_ReadMem(4 bytes @ 0xE0001000) (0020ms, 1528ms total)
T0340 001:909 JLINK_IsHalted() -- CPU_ReadMem(2 bytes @ 0x20000000)  returns TRUE (0020ms, 1548ms total)
T0340 001:929 JLINK_ReadReg(R15 (PC))  returns 0x20000000 (0000ms, 1528ms total)
T0340 001:929 JLINK_ClrBPEx(BPHandle = 0x00000004)  returns 0x00 (0000ms, 1528ms total)
T0340 001:929 JLINK_ReadReg(R0)  returns 0x00000000 (0000ms, 1528ms total)
T0340 001:929 JLINK_WriteMem(0x20000164, 0x0400 Bytes, ...) - Data: 80 24 00 20 45 01 00 08 4D 01 00 08 4F 01 00 08 ... -- CPU_WriteMem(1024 bytes @ 0x20000164)  returns 0x400 (0018ms, 1546ms total)
T0340 001:947 JLINK_WriteReg(R0, 0x08000000)  returns 0x00 (0000ms, 1546ms total)
T0340 001:947 JLINK_WriteReg(R1, 0x00000400)  returns 0x00 (0000ms, 1546ms total)
T0340 001:947 JLINK_WriteReg(R2, 0x20000164)  returns 0x00 (0000ms, 1546ms total)
T0340 001:947 JLINK_WriteReg(R3, 0x00000000)  returns 0x00 (0000ms, 1546ms total)
T0340 001:947 JLINK_WriteReg(R4, 0x00000000)  returns 0x00 (0000ms, 1546ms total)
T0340 001:947 JLINK_WriteReg(R5, 0x00000000)  returns 0x00 (0000ms, 1546ms total)
T0340 001:947 JLINK_WriteReg(R6, 0x00000000)  returns 0x00 (0000ms, 1546ms total)
T0340 001:947 JLINK_WriteReg(R7, 0x00000000)  returns 0x00 (0000ms, 1546ms total)
T0340 001:947 JLINK_WriteReg(R8, 0x00000000)  returns 0x00 (0000ms, 1546ms total)
T0340 001:947 JLINK_WriteReg(R9, 0x20000160)  returns 0x00 (0000ms, 1546ms total)
T0340 001:947 JLINK_WriteReg(R10, 0x00000000)  returns 0x00 (0000ms, 1546ms total)
T0340 001:947 JLINK_WriteReg(R11, 0x00000000)  returns 0x00 (0000ms, 1546ms total)
T0340 001:947 JLINK_WriteReg(R12, 0x00000000)  returns 0x00 (0001ms, 1547ms total)
T0340 001:948 JLINK_WriteReg(R13 (SP), 0x20000800)  returns 0x00 (0000ms, 1547ms total)
T0340 001:948 JLINK_WriteReg(R14, 0x20000001)  returns 0x00 (0000ms, 1547ms total)
T0340 001:948 JLINK_WriteReg(R15 (PC), 0x200000F4)  returns 0x00 (0000ms, 1547ms total)
T0340 001:948 JLINK_WriteReg(XPSR, 0x01000000)  returns 0x00 (0000ms, 1547ms total)
T0340 001:948 JLINK_WriteReg(MSP, 0x20000800)  returns 0x00 (0000ms, 1547ms total)
T0340 001:948 JLINK_WriteReg(PSP, 0x20000800)  returns 0x00 (0000ms, 1547ms total)
T0340 001:948 JLINK_WriteReg(CFBP, 0x00000000)  returns 0x00 (0000ms, 1547ms total)
T0340 001:948 JLINK_SetBPEx(Addr = 0x20000000, Type = 0xFFFFFFF2)  returns 0x00000005 (0000ms, 1547ms total)
T0340 001:948 JLINK_Go() -- CPU_ReadMem(4 bytes @ 0xE0001000) (0016ms, 1563ms total)
T0340 001:964 JLINK_IsHalted()  returns FALSE (0005ms, 1568ms total)
T0340 001:979 JLINK_IsHalted()  returns FALSE (0005ms, 1568ms total)
T0340 001:985 JLINK_IsHalted()  returns FALSE (0005ms, 1568ms total)
T0340 001:992 JLINK_IsHalted() -- CPU_ReadMem(2 bytes @ 0x20000000)  returns TRUE (0019ms, 1582ms total)
T0340 002:011 JLINK_ReadReg(R15 (PC))  returns 0x20000000 (0000ms, 1563ms total)
T0340 002:011 JLINK_ClrBPEx(BPHandle = 0x00000005)  returns 0x00 (0000ms, 1563ms total)
T0340 002:011 JLINK_ReadReg(R0)  returns 0x00000000 (0000ms, 1563ms total)
T0340 002:012 JLINK_WriteMem(0x20000164, 0x0400 Bytes, ...) - Data: 82 42 30 BD 20 2A 04 DB 20 3A 00 FA 02 F1 00 20 ... -- CPU_WriteMem(1024 bytes @ 0x20000164)  returns 0x400 (0018ms, 1581ms total)
T0340 002:030 JLINK_WriteReg(R0, 0x08000400)  returns 0x00 (0000ms, 1581ms total)
T0340 002:030 JLINK_WriteReg(R1, 0x00000400)  returns 0x00 (0000ms, 1581ms total)
T0340 002:030 JLINK_WriteReg(R2, 0x20000164)  returns 0x00 (0000ms, 1581ms total)
T0340 002:030 JLINK_WriteReg(R3, 0x00000000)  returns 0x00 (0000ms, 1581ms total)
T0340 002:030 JLINK_WriteReg(R4, 0x00000000)  returns 0x00 (0000ms, 1581ms total)
T0340 002:030 JLINK_WriteReg(R5, 0x00000000)  returns 0x00 (0000ms, 1581ms total)
T0340 002:030 JLINK_WriteReg(R6, 0x00000000)  returns 0x00 (0000ms, 1581ms total)
T0340 002:030 JLINK_WriteReg(R7, 0x00000000)  returns 0x00 (0001ms, 1582ms total)
T0340 002:031 JLINK_WriteReg(R8, 0x00000000)  returns 0x00 (0000ms, 1582ms total)
T0340 002:031 JLINK_WriteReg(R9, 0x20000160)  returns 0x00 (0000ms, 1582ms total)
T0340 002:031 JLINK_WriteReg(R10, 0x00000000)  returns 0x00 (0000ms, 1582ms total)
T0340 002:031 JLINK_WriteReg(R11, 0x00000000)  returns 0x00 (0000ms, 1582ms total)
T0340 002:031 JLINK_WriteReg(R12, 0x00000000)  returns 0x00 (0000ms, 1582ms total)
T0340 002:031 JLINK_WriteReg(R13 (SP), 0x20000800)  returns 0x00 (0000ms, 1582ms total)
T0340 002:031 JLINK_WriteReg(R14, 0x20000001)  returns 0x00 (0000ms, 1582ms total)
T0340 002:031 JLINK_WriteReg(R15 (PC), 0x200000F4)  returns 0x00 (0000ms, 1582ms total)
T0340 002:031 JLINK_WriteReg(XPSR, 0x01000000)  returns 0x00 (0000ms, 1582ms total)
T0340 002:031 JLINK_WriteReg(MSP, 0x20000800)  returns 0x00 (0000ms, 1582ms total)
T0340 002:031 JLINK_WriteReg(PSP, 0x20000800)  returns 0x00 (0000ms, 1582ms total)
T0340 002:031 JLINK_WriteReg(CFBP, 0x00000000)  returns 0x00 (0000ms, 1582ms total)
T0340 002:031 JLINK_SetBPEx(Addr = 0x20000000, Type = 0xFFFFFFF2)  returns 0x00000006 (0000ms, 1582ms total)
T0340 002:031 JLINK_Go() -- CPU_ReadMem(4 bytes @ 0xE0001000) (0016ms, 1598ms total)
T0340 002:047 JLINK_IsHalted()  returns FALSE (0005ms, 1603ms total)
T0340 002:058 JLINK_IsHalted()  returns FALSE (0005ms, 1603ms total)
T0340 002:065 JLINK_IsHalted()  returns FALSE (0005ms, 1603ms total)
T0340 002:071 JLINK_IsHalted()  returns FALSE (0005ms, 1603ms total)
T0340 002:077 JLINK_IsHalted() -- CPU_ReadMem(2 bytes @ 0x20000000)  returns TRUE (0019ms, 1617ms total)
T0340 002:096 JLINK_ReadReg(R15 (PC))  returns 0x20000000 (0000ms, 1598ms total)
T0340 002:096 JLINK_ClrBPEx(BPHandle = 0x00000006)  returns 0x00 (0000ms, 1598ms total)
T0340 002:096 JLINK_ReadReg(R0)  returns 0x00000000 (0000ms, 1598ms total)
T0340 002:097 JLINK_WriteMem(0x20000164, 0x0400 Bytes, ...) - Data: 07 E0 40 F6 6E 21 01 E0 4A 1E 91 B2 00 29 FB DC ... -- CPU_WriteMem(1024 bytes @ 0x20000164)  returns 0x400 (0018ms, 1616ms total)
T0340 002:115 JLINK_WriteReg(R0, 0x08000800)  returns 0x00 (0000ms, 1616ms total)
T0340 002:115 JLINK_WriteReg(R1, 0x00000400)  returns 0x00 (0000ms, 1616ms total)
T0340 002:115 JLINK_WriteReg(R2, 0x20000164)  returns 0x00 (0000ms, 1616ms total)
T0340 002:115 JLINK_WriteReg(R3, 0x00000000)  returns 0x00 (0000ms, 1616ms total)
T0340 002:115 JLINK_WriteReg(R4, 0x00000000)  returns 0x00 (0000ms, 1616ms total)
T0340 002:115 JLINK_WriteReg(R5, 0x00000000)  returns 0x00 (0000ms, 1616ms total)
T0340 002:115 JLINK_WriteReg(R6, 0x00000000)  returns 0x00 (0000ms, 1616ms total)
T0340 002:115 JLINK_WriteReg(R7, 0x00000000)  returns 0x00 (0000ms, 1616ms total)
T0340 002:115 JLINK_WriteReg(R8, 0x00000000)  returns 0x00 (0000ms, 1616ms total)
T0340 002:115 JLINK_WriteReg(R9, 0x20000160)  returns 0x00 (0000ms, 1616ms total)
T0340 002:115 JLINK_WriteReg(R10, 0x00000000)  returns 0x00 (0000ms, 1616ms total)
T0340 002:115 JLINK_WriteReg(R11, 0x00000000)  returns 0x00 (0000ms, 1616ms total)
T0340 002:115 JLINK_WriteReg(R12, 0x00000000)  returns 0x00 (0000ms, 1616ms total)
T0340 002:115 JLINK_WriteReg(R13 (SP), 0x20000800)  returns 0x00 (0000ms, 1616ms total)
T0340 002:115 JLINK_WriteReg(R14, 0x20000001)  returns 0x00 (0001ms, 1617ms total)
T0340 002:116 JLINK_WriteReg(R15 (PC), 0x200000F4)  returns 0x00 (0000ms, 1617ms total)
T0340 002:116 JLINK_WriteReg(XPSR, 0x01000000)  returns 0x00 (0000ms, 1617ms total)
T0340 002:116 JLINK_WriteReg(MSP, 0x20000800)  returns 0x00 (0000ms, 1617ms total)
T0340 002:116 JLINK_WriteReg(PSP, 0x20000800)  returns 0x00 (0000ms, 1617ms total)
T0340 002:116 JLINK_WriteReg(CFBP, 0x00000000)  returns 0x00 (0000ms, 1617ms total)
T0340 002:116 JLINK_SetBPEx(Addr = 0x20000000, Type = 0xFFFFFFF2)  returns 0x00000007 (0000ms, 1617ms total)
T0340 002:116 JLINK_Go() -- CPU_ReadMem(4 bytes @ 0xE0001000) (0016ms, 1633ms total)
T0340 002:132 JLINK_IsHalted()  returns FALSE (0005ms, 1638ms total)
T0340 002:141 JLINK_IsHalted()  returns FALSE (0005ms, 1638ms total)
T0340 002:148 JLINK_IsHalted()  returns FALSE (0005ms, 1638ms total)
T0340 002:164 JLINK_IsHalted() -- CPU_ReadMem(2 bytes @ 0x20000000)  returns TRUE (0019ms, 1652ms total)
T0340 002:183 JLINK_ReadReg(R15 (PC))  returns 0x20000000 (0001ms, 1634ms total)
T0340 002:184 JLINK_ClrBPEx(BPHandle = 0x00000007)  returns 0x00 (0000ms, 1634ms total)
T0340 002:184 JLINK_ReadReg(R0)  returns 0x00000000 (0000ms, 1634ms total)
T0340 002:185 JLINK_WriteMem(0x20000164, 0x0400 Bytes, ...) - Data: AA 2A 06 D1 0F 4A 92 88 0F 4B 1A 80 05 22 0C 4B ... -- CPU_WriteMem(1024 bytes @ 0x20000164)  returns 0x400 (0018ms, 1652ms total)
T0340 002:203 JLINK_WriteReg(R0, 0x08000C00)  returns 0x00 (0000ms, 1652ms total)
T0340 002:203 JLINK_WriteReg(R1, 0x00000400)  returns 0x00 (0001ms, 1653ms total)
T0340 002:204 JLINK_WriteReg(R2, 0x20000164)  returns 0x00 (0000ms, 1653ms total)
T0340 002:204 JLINK_WriteReg(R3, 0x00000000)  returns 0x00 (0000ms, 1653ms total)
T0340 002:204 JLINK_WriteReg(R4, 0x00000000)  returns 0x00 (0000ms, 1653ms total)
T0340 002:204 JLINK_WriteReg(R5, 0x00000000)  returns 0x00 (0000ms, 1653ms total)
T0340 002:204 JLINK_WriteReg(R6, 0x00000000)  returns 0x00 (0000ms, 1653ms total)
T0340 002:204 JLINK_WriteReg(R7, 0x00000000)  returns 0x00 (0000ms, 1653ms total)
T0340 002:204 JLINK_WriteReg(R8, 0x00000000)  returns 0x00 (0000ms, 1653ms total)
T0340 002:204 JLINK_WriteReg(R9, 0x20000160)  returns 0x00 (0000ms, 1653ms total)
T0340 002:204 JLINK_WriteReg(R10, 0x00000000)  returns 0x00 (0000ms, 1653ms total)
T0340 002:204 JLINK_WriteReg(R11, 0x00000000)  returns 0x00 (0000ms, 1653ms total)
T0340 002:204 JLINK_WriteReg(R12, 0x00000000)  returns 0x00 (0000ms, 1653ms total)
T0340 002:204 JLINK_WriteReg(R13 (SP), 0x20000800)  returns 0x00 (0000ms, 1653ms total)
T0340 002:204 JLINK_WriteReg(R14, 0x20000001)  returns 0x00 (0000ms, 1653ms total)
T0340 002:204 JLINK_WriteReg(R15 (PC), 0x200000F4)  returns 0x00 (0000ms, 1653ms total)
T0340 002:204 JLINK_WriteReg(XPSR, 0x01000000)  returns 0x00 (0001ms, 1654ms total)
T0340 002:205 JLINK_WriteReg(MSP, 0x20000800)  returns 0x00 (0000ms, 1654ms total)
T0340 002:205 JLINK_WriteReg(PSP, 0x20000800)  returns 0x00 (0000ms, 1654ms total)
T0340 002:205 JLINK_WriteReg(CFBP, 0x00000000)  returns 0x00 (0000ms, 1654ms total)
T0340 002:205 JLINK_SetBPEx(Addr = 0x20000000, Type = 0xFFFFFFF2)  returns 0x00000008 (0000ms, 1654ms total)
T0340 002:205 JLINK_Go() -- CPU_ReadMem(4 bytes @ 0xE0001000) (0015ms, 1669ms total)
T0340 002:220 JLINK_IsHalted()  returns FALSE (0005ms, 1674ms total)
T0340 002:230 JLINK_IsHalted()  returns FALSE (0005ms, 1674ms total)
T0340 002:236 JLINK_IsHalted()  returns FALSE (0005ms, 1674ms total)
T0340 002:242 JLINK_IsHalted()  returns FALSE (0005ms, 1674ms total)
T0340 002:248 JLINK_IsHalted() -- CPU_ReadMem(2 bytes @ 0x20000000)  returns TRUE (0019ms, 1688ms total)
T0340 002:267 JLINK_ReadReg(R15 (PC))  returns 0x20000000 (0000ms, 1669ms total)
T0340 002:267 JLINK_ClrBPEx(BPHandle = 0x00000008)  returns 0x00 (0000ms, 1669ms total)
T0340 002:267 JLINK_ReadReg(R0)  returns 0x00000000 (0000ms, 1669ms total)
T0340 002:268 JLINK_WriteMem(0x20000164, 0x0400 Bytes, ...) - Data: 02 A8 00 F0 1B FC 00 20 8D F8 04 00 4F F4 00 30 ... -- CPU_WriteMem(1024 bytes @ 0x20000164)  returns 0x400 (0018ms, 1687ms total)
T0340 002:286 JLINK_WriteReg(R0, 0x08001000)  returns 0x00 (0000ms, 1687ms total)
T0340 002:286 JLINK_WriteReg(R1, 0x00000400)  returns 0x00 (0000ms, 1687ms total)
T0340 002:286 JLINK_WriteReg(R2, 0x20000164)  returns 0x00 (0000ms, 1687ms total)
T0340 002:286 JLINK_WriteReg(R3, 0x00000000)  returns 0x00 (0000ms, 1687ms total)
T0340 002:286 JLINK_WriteReg(R4, 0x00000000)  returns 0x00 (0000ms, 1687ms total)
T0340 002:286 JLINK_WriteReg(R5, 0x00000000)  returns 0x00 (0000ms, 1687ms total)
T0340 002:286 JLINK_WriteReg(R6, 0x00000000)  returns 0x00 (0000ms, 1687ms total)
T0340 002:286 JLINK_WriteReg(R7, 0x00000000)  returns 0x00 (0000ms, 1687ms total)
T0340 002:287 JLINK_WriteReg(R8, 0x00000000)  returns 0x00 (0000ms, 1688ms total)
T0340 002:287 JLINK_WriteReg(R9, 0x20000160)  returns 0x00 (0000ms, 1688ms total)
T0340 002:287 JLINK_WriteReg(R10, 0x00000000)  returns 0x00 (0000ms, 1688ms total)
T0340 002:287 JLINK_WriteReg(R11, 0x00000000)  returns 0x00 (0000ms, 1688ms total)
T0340 002:287 JLINK_WriteReg(R12, 0x00000000)  returns 0x00 (0000ms, 1688ms total)
T0340 002:287 JLINK_WriteReg(R13 (SP), 0x20000800)  returns 0x00 (0000ms, 1688ms total)
T0340 002:287 JLINK_WriteReg(R14, 0x20000001)  returns 0x00 (0000ms, 1688ms total)
T0340 002:287 JLINK_WriteReg(R15 (PC), 0x200000F4)  returns 0x00 (0000ms, 1688ms total)
T0340 002:287 JLINK_WriteReg(XPSR, 0x01000000)  returns 0x00 (0000ms, 1688ms total)
T0340 002:287 JLINK_WriteReg(MSP, 0x20000800)  returns 0x00 (0000ms, 1688ms total)
T0340 002:287 JLINK_WriteReg(PSP, 0x20000800)  returns 0x00 (0000ms, 1688ms total)
T0340 002:287 JLINK_WriteReg(CFBP, 0x00000000)  returns 0x00 (0000ms, 1688ms total)
T0340 002:287 JLINK_SetBPEx(Addr = 0x20000000, Type = 0xFFFFFFF2)  returns 0x00000009 (0000ms, 1688ms total)
T0340 002:287 JLINK_Go() -- CPU_ReadMem(4 bytes @ 0xE0001000) (0016ms, 1704ms total)
T0340 002:303 JLINK_IsHalted()  returns FALSE (0005ms, 1709ms total)
T0340 002:317 JLINK_IsHalted()  returns FALSE (0005ms, 1709ms total)
T0340 002:323 JLINK_IsHalted()  returns FALSE (0005ms, 1709ms total)
T0340 002:329 JLINK_IsHalted()  returns FALSE (0005ms, 1709ms total)
T0340 002:335 JLINK_IsHalted() -- CPU_ReadMem(2 bytes @ 0x20000000)  returns TRUE (0019ms, 1723ms total)
T0340 002:354 JLINK_ReadReg(R15 (PC))  returns 0x20000000 (0000ms, 1704ms total)
T0340 002:354 JLINK_ClrBPEx(BPHandle = 0x00000009)  returns 0x00 (0000ms, 1704ms total)
T0340 002:354 JLINK_ReadReg(R0)  returns 0x00000000 (0001ms, 1705ms total)
T0340 002:355 JLINK_WriteMem(0x20000164, 0x0400 Bytes, ...) - Data: 6B 48 6C 49 09 78 30 F8 11 00 6B 49 08 80 01 20 ... -- CPU_WriteMem(1024 bytes @ 0x20000164)  returns 0x400 (0018ms, 1723ms total)
T0340 002:373 JLINK_WriteReg(R0, 0x08001400)  returns 0x00 (0004ms, 1727ms total)
T0340 002:377 JLINK_WriteReg(R1, 0x00000400)  returns 0x00 (0000ms, 1727ms total)
T0340 002:377 JLINK_WriteReg(R2, 0x20000164)  returns 0x00 (0000ms, 1727ms total)
T0340 002:377 JLINK_WriteReg(R3, 0x00000000)  returns 0x00 (0000ms, 1727ms total)
T0340 002:377 JLINK_WriteReg(R4, 0x00000000)  returns 0x00 (0000ms, 1727ms total)
T0340 002:377 JLINK_WriteReg(R5, 0x00000000)  returns 0x00 (0000ms, 1727ms total)
T0340 002:377 JLINK_WriteReg(R6, 0x00000000)  returns 0x00 (0001ms, 1728ms total)
T0340 002:378 JLINK_WriteReg(R7, 0x00000000)  returns 0x00 (0000ms, 1728ms total)
T0340 002:378 JLINK_WriteReg(R8, 0x00000000)  returns 0x00 (0000ms, 1728ms total)
T0340 002:378 JLINK_WriteReg(R9, 0x20000160)  returns 0x00 (0000ms, 1728ms total)
T0340 002:378 JLINK_WriteReg(R10, 0x00000000)  returns 0x00 (0000ms, 1728ms total)
T0340 002:378 JLINK_WriteReg(R11, 0x00000000)  returns 0x00 (0000ms, 1728ms total)
T0340 002:378 JLINK_WriteReg(R12, 0x00000000)  returns 0x00 (0000ms, 1728ms total)
T0340 002:378 JLINK_WriteReg(R13 (SP), 0x20000800)  returns 0x00 (0000ms, 1728ms total)
T0340 002:378 JLINK_WriteReg(R14, 0x20000001)  returns 0x00 (0000ms, 1728ms total)
T0340 002:378 JLINK_WriteReg(R15 (PC), 0x200000F4)  returns 0x00 (0000ms, 1728ms total)
T0340 002:378 JLINK_WriteReg(XPSR, 0x01000000)  returns 0x00 (0000ms, 1728ms total)
T0340 002:378 JLINK_WriteReg(MSP, 0x20000800)  returns 0x00 (0000ms, 1728ms total)
T0340 002:378 JLINK_WriteReg(PSP, 0x20000800)  returns 0x00 (0000ms, 1728ms total)
T0340 002:378 JLINK_WriteReg(CFBP, 0x00000000)  returns 0x00 (0001ms, 1729ms total)
T0340 002:379 JLINK_SetBPEx(Addr = 0x20000000, Type = 0xFFFFFFF2)  returns 0x0000000A (0000ms, 1729ms total)
T0340 002:379 JLINK_Go() -- CPU_ReadMem(4 bytes @ 0xE0001000) (0015ms, 1744ms total)
T0340 002:394 JLINK_IsHalted()  returns FALSE (0005ms, 1749ms total)
T0340 002:406 JLINK_IsHalted()  returns FALSE (0005ms, 1749ms total)
T0340 002:412 JLINK_IsHalted()  returns FALSE (0005ms, 1749ms total)
T0340 002:419 JLINK_IsHalted()  returns FALSE (0005ms, 1749ms total)
T0340 002:425 JLINK_IsHalted() -- CPU_ReadMem(2 bytes @ 0x20000000)  returns TRUE (0019ms, 1763ms total)
T0340 002:444 JLINK_ReadReg(R15 (PC))  returns 0x20000000 (0000ms, 1744ms total)
T0340 002:444 JLINK_ClrBPEx(BPHandle = 0x0000000A)  returns 0x00 (0000ms, 1744ms total)
T0340 002:444 JLINK_ReadReg(R0)  returns 0x00000000 (0000ms, 1744ms total)
T0340 002:445 JLINK_WriteMem(0x20000164, 0x0400 Bytes, ...) - Data: B4 15 00 20 00 04 00 40 DD 15 00 20 DC 15 00 20 ... -- CPU_WriteMem(1024 bytes @ 0x20000164)  returns 0x400 (0018ms, 1762ms total)
T0340 002:463 JLINK_WriteReg(R0, 0x08001800)  returns 0x00 (0000ms, 1762ms total)
T0340 002:463 JLINK_WriteReg(R1, 0x00000400)  returns 0x00 (0000ms, 1762ms total)
T0340 002:463 JLINK_WriteReg(R2, 0x20000164)  returns 0x00 (0000ms, 1762ms total)
T0340 002:463 JLINK_WriteReg(R3, 0x00000000)  returns 0x00 (0000ms, 1762ms total)
T0340 002:463 JLINK_WriteReg(R4, 0x00000000)  returns 0x00 (0000ms, 1762ms total)
T0340 002:463 JLINK_WriteReg(R5, 0x00000000)  returns 0x00 (0000ms, 1762ms total)
T0340 002:463 JLINK_WriteReg(R6, 0x00000000)  returns 0x00 (0001ms, 1763ms total)
T0340 002:464 JLINK_WriteReg(R7, 0x00000000)  returns 0x00 (0000ms, 1763ms total)
T0340 002:464 JLINK_WriteReg(R8, 0x00000000)  returns 0x00 (0000ms, 1763ms total)
T0340 002:464 JLINK_WriteReg(R9, 0x20000160)  returns 0x00 (0000ms, 1763ms total)
T0340 002:464 JLINK_WriteReg(R10, 0x00000000)  returns 0x00 (0000ms, 1763ms total)
T0340 002:464 JLINK_WriteReg(R11, 0x00000000)  returns 0x00 (0000ms, 1763ms total)
T0340 002:464 JLINK_WriteReg(R12, 0x00000000)  returns 0x00 (0000ms, 1763ms total)
T0340 002:464 JLINK_WriteReg(R13 (SP), 0x20000800)  returns 0x00 (0000ms, 1763ms total)
T0340 002:464 JLINK_WriteReg(R14, 0x20000001)  returns 0x00 (0000ms, 1763ms total)
T0340 002:464 JLINK_WriteReg(R15 (PC), 0x200000F4)  returns 0x00 (0000ms, 1763ms total)
T0340 002:464 JLINK_WriteReg(XPSR, 0x01000000)  returns 0x00 (0000ms, 1763ms total)
T0340 002:464 JLINK_WriteReg(MSP, 0x20000800)  returns 0x00 (0000ms, 1763ms total)
T0340 002:464 JLINK_WriteReg(PSP, 0x20000800)  returns 0x00 (0000ms, 1763ms total)
T0340 002:464 JLINK_WriteReg(CFBP, 0x00000000)  returns 0x00 (0000ms, 1763ms total)
T0340 002:464 JLINK_SetBPEx(Addr = 0x20000000, Type = 0xFFFFFFF2)  returns 0x0000000B (0000ms, 1763ms total)
T0340 002:464 JLINK_Go() -- CPU_ReadMem(4 bytes @ 0xE0001000) (0016ms, 1779ms total)
T0340 002:480 JLINK_IsHalted()  returns FALSE (0006ms, 1785ms total)
T0340 002:492 JLINK_IsHalted()  returns FALSE (0005ms, 1784ms total)
T0340 002:503 JLINK_IsHalted()  returns FALSE (0005ms, 1784ms total)
T0340 002:509 JLINK_IsHalted() -- CPU_ReadMem(2 bytes @ 0x20000000)  returns TRUE (0019ms, 1798ms total)
T0340 002:528 JLINK_ReadReg(R15 (PC))  returns 0x20000000 (0001ms, 1780ms total)
T0340 002:529 JLINK_ClrBPEx(BPHandle = 0x0000000B)  returns 0x00 (0000ms, 1780ms total)
T0340 002:529 JLINK_ReadReg(R0)  returns 0x00000000 (0000ms, 1780ms total)
T0340 002:529 JLINK_WriteMem(0x20000164, 0x0400 Bytes, ...) - Data: 3D 49 08 70 2E 48 C0 78 32 28 77 D0 23 DC 10 28 ... -- CPU_WriteMem(1024 bytes @ 0x20000164)  returns 0x400 (0018ms, 1798ms total)
T0340 002:547 JLINK_WriteReg(R0, 0x08001C00)  returns 0x00 (0001ms, 1799ms total)
T0340 002:548 JLINK_WriteReg(R1, 0x00000400)  returns 0x00 (0000ms, 1799ms total)
T0340 002:548 JLINK_WriteReg(R2, 0x20000164)  returns 0x00 (0000ms, 1799ms total)
T0340 002:548 JLINK_WriteReg(R3, 0x00000000)  returns 0x00 (0000ms, 1799ms total)
T0340 002:548 JLINK_WriteReg(R4, 0x00000000)  returns 0x00 (0000ms, 1799ms total)
T0340 002:548 JLINK_WriteReg(R5, 0x00000000)  returns 0x00 (0000ms, 1799ms total)
T0340 002:548 JLINK_WriteReg(R6, 0x00000000)  returns 0x00 (0000ms, 1799ms total)
T0340 002:548 JLINK_WriteReg(R7, 0x00000000)  returns 0x00 (0000ms, 1799ms total)
T0340 002:548 JLINK_WriteReg(R8, 0x00000000)  returns 0x00 (0000ms, 1799ms total)
T0340 002:548 JLINK_WriteReg(R9, 0x20000160)  returns 0x00 (0001ms, 1800ms total)
T0340 002:549 JLINK_WriteReg(R10, 0x00000000)  returns 0x00 (0000ms, 1800ms total)
T0340 002:549 JLINK_WriteReg(R11, 0x00000000)  returns 0x00 (0000ms, 1800ms total)
T0340 002:549 JLINK_WriteReg(R12, 0x00000000)  returns 0x00 (0000ms, 1800ms total)
T0340 002:549 JLINK_WriteReg(R13 (SP), 0x20000800)  returns 0x00 (0000ms, 1800ms total)
T0340 002:549 JLINK_WriteReg(R14, 0x20000001)  returns 0x00 (0000ms, 1800ms total)
T0340 002:549 JLINK_WriteReg(R15 (PC), 0x200000F4)  returns 0x00 (0000ms, 1800ms total)
T0340 002:549 JLINK_WriteReg(XPSR, 0x01000000)  returns 0x00 (0000ms, 1800ms total)
T0340 002:549 JLINK_WriteReg(MSP, 0x20000800)  returns 0x00 (0000ms, 1800ms total)
T0340 002:549 JLINK_WriteReg(PSP, 0x20000800)  returns 0x00 (0000ms, 1800ms total)
T0340 002:549 JLINK_WriteReg(CFBP, 0x00000000)  returns 0x00 (0000ms, 1800ms total)
T0340 002:549 JLINK_SetBPEx(Addr = 0x20000000, Type = 0xFFFFFFF2)  returns 0x0000000C (0000ms, 1800ms total)
T0340 002:549 JLINK_Go() -- CPU_ReadMem(4 bytes @ 0xE0001000) (0016ms, 1816ms total)
T0340 002:565 JLINK_IsHalted()  returns FALSE (0005ms, 1821ms total)
T0340 002:573 JLINK_IsHalted()  returns FALSE (0005ms, 1821ms total)
T0340 002:579 JLINK_IsHalted()  returns FALSE (0005ms, 1821ms total)
T0340 002:585 JLINK_IsHalted()  returns FALSE (0005ms, 1821ms total)
T0340 002:591 JLINK_IsHalted()  returns FALSE (0005ms, 1821ms total)
T0340 002:602 JLINK_IsHalted() -- CPU_ReadMem(2 bytes @ 0x20000000)  returns TRUE (0019ms, 1835ms total)
T0340 002:621 JLINK_ReadReg(R15 (PC))  returns 0x20000000 (0000ms, 1816ms total)
T0340 002:621 JLINK_ClrBPEx(BPHandle = 0x0000000C)  returns 0x00 (0000ms, 1816ms total)
T0340 002:622 JLINK_ReadReg(R0)  returns 0x00000000 (0000ms, 1817ms total)
T0340 002:623 JLINK_WriteMem(0x20000164, 0x0400 Bytes, ...) - Data: 08 70 39 48 40 79 3A 49 08 70 AA E0 1D 20 35 49 ... -- CPU_WriteMem(1024 bytes @ 0x20000164)  returns 0x400 (0018ms, 1835ms total)
T0340 002:641 JLINK_WriteReg(R0, 0x08002000)  returns 0x00 (0000ms, 1835ms total)
T0340 002:641 JLINK_WriteReg(R1, 0x00000400)  returns 0x00 (0000ms, 1835ms total)
T0340 002:641 JLINK_WriteReg(R2, 0x20000164)  returns 0x00 (0000ms, 1835ms total)
T0340 002:641 JLINK_WriteReg(R3, 0x00000000)  returns 0x00 (0000ms, 1835ms total)
T0340 002:641 JLINK_WriteReg(R4, 0x00000000)  returns 0x00 (0000ms, 1835ms total)
T0340 002:641 JLINK_WriteReg(R5, 0x00000000)  returns 0x00 (0000ms, 1835ms total)
T0340 002:641 JLINK_WriteReg(R6, 0x00000000)  returns 0x00 (0000ms, 1835ms total)
T0340 002:641 JLINK_WriteReg(R7, 0x00000000)  returns 0x00 (0000ms, 1835ms total)
T0340 002:641 JLINK_WriteReg(R8, 0x00000000)  returns 0x00 (0000ms, 1835ms total)
T0340 002:641 JLINK_WriteReg(R9, 0x20000160)  returns 0x00 (0000ms, 1835ms total)
T0340 002:641 JLINK_WriteReg(R10, 0x00000000)  returns 0x00 (0000ms, 1835ms total)
T0340 002:641 JLINK_WriteReg(R11, 0x00000000)  returns 0x00 (0000ms, 1835ms total)
T0340 002:641 JLINK_WriteReg(R12, 0x00000000)  returns 0x00 (0000ms, 1835ms total)
T0340 002:641 JLINK_WriteReg(R13 (SP), 0x20000800)  returns 0x00 (0000ms, 1835ms total)
T0340 002:641 JLINK_WriteReg(R14, 0x20000001)  returns 0x00 (0001ms, 1836ms total)
T0340 002:642 JLINK_WriteReg(R15 (PC), 0x200000F4)  returns 0x00 (0000ms, 1836ms total)
T0340 002:642 JLINK_WriteReg(XPSR, 0x01000000)  returns 0x00 (0000ms, 1836ms total)
T0340 002:642 JLINK_WriteReg(MSP, 0x20000800)  returns 0x00 (0000ms, 1836ms total)
T0340 002:642 JLINK_WriteReg(PSP, 0x20000800)  returns 0x00 (0000ms, 1836ms total)
T0340 002:642 JLINK_WriteReg(CFBP, 0x00000000)  returns 0x00 (0000ms, 1836ms total)
T0340 002:642 JLINK_SetBPEx(Addr = 0x20000000, Type = 0xFFFFFFF2)  returns 0x0000000D (0000ms, 1836ms total)
T0340 002:642 JLINK_Go() -- CPU_ReadMem(4 bytes @ 0xE0001000) (0016ms, 1852ms total)
T0340 002:658 JLINK_IsHalted()  returns FALSE (0005ms, 1857ms total)
T0340 002:668 JLINK_IsHalted()  returns FALSE (0005ms, 1857ms total)
T0340 002:675 JLINK_IsHalted()  returns FALSE (0005ms, 1857ms total)
T0340 002:682 JLINK_IsHalted()  returns FALSE (0005ms, 1857ms total)
T0340 002:689 JLINK_IsHalted() -- CPU_ReadMem(2 bytes @ 0x20000000)  returns TRUE (0019ms, 1871ms total)
T0340 002:708 JLINK_ReadReg(R15 (PC))  returns 0x20000000 (0000ms, 1852ms total)
T0340 002:708 JLINK_ClrBPEx(BPHandle = 0x0000000D)  returns 0x00 (0000ms, 1852ms total)
T0340 002:708 JLINK_ReadReg(R0)  returns 0x00000000 (0001ms, 1853ms total)
T0340 002:709 JLINK_WriteMem(0x20000164, 0x0400 Bytes, ...) - Data: 20 3A 82 F8 20 10 01 28 02 D0 04 28 08 D1 03 E0 ... -- CPU_WriteMem(1024 bytes @ 0x20000164)  returns 0x400 (0018ms, 1871ms total)
T0340 002:727 JLINK_WriteReg(R0, 0x08002400)  returns 0x00 (0000ms, 1871ms total)
T0340 002:727 JLINK_WriteReg(R1, 0x00000400)  returns 0x00 (0000ms, 1871ms total)
T0340 002:727 JLINK_WriteReg(R2, 0x20000164)  returns 0x00 (0000ms, 1871ms total)
T0340 002:727 JLINK_WriteReg(R3, 0x00000000)  returns 0x00 (0001ms, 1872ms total)
T0340 002:728 JLINK_WriteReg(R4, 0x00000000)  returns 0x00 (0000ms, 1872ms total)
T0340 002:728 JLINK_WriteReg(R5, 0x00000000)  returns 0x00 (0000ms, 1872ms total)
T0340 002:728 JLINK_WriteReg(R6, 0x00000000)  returns 0x00 (0000ms, 1872ms total)
T0340 002:728 JLINK_WriteReg(R7, 0x00000000)  returns 0x00 (0000ms, 1872ms total)
T0340 002:728 JLINK_WriteReg(R8, 0x00000000)  returns 0x00 (0000ms, 1872ms total)
T0340 002:728 JLINK_WriteReg(R9, 0x20000160)  returns 0x00 (0000ms, 1872ms total)
T0340 002:728 JLINK_WriteReg(R10, 0x00000000)  returns 0x00 (0000ms, 1872ms total)
T0340 002:728 JLINK_WriteReg(R11, 0x00000000)  returns 0x00 (0000ms, 1872ms total)
T0340 002:728 JLINK_WriteReg(R12, 0x00000000)  returns 0x00 (0000ms, 1872ms total)
T0340 002:728 JLINK_WriteReg(R13 (SP), 0x20000800)  returns 0x00 (0000ms, 1872ms total)
T0340 002:728 JLINK_WriteReg(R14, 0x20000001)  returns 0x00 (0000ms, 1872ms total)
T0340 002:728 JLINK_WriteReg(R15 (PC), 0x200000F4)  returns 0x00 (0000ms, 1872ms total)
T0340 002:728 JLINK_WriteReg(XPSR, 0x01000000)  returns 0x00 (0001ms, 1873ms total)
T0340 002:729 JLINK_WriteReg(MSP, 0x20000800)  returns 0x00 (0000ms, 1873ms total)
T0340 002:729 JLINK_WriteReg(PSP, 0x20000800)  returns 0x00 (0000ms, 1873ms total)
T0340 002:729 JLINK_WriteReg(CFBP, 0x00000000)  returns 0x00 (0000ms, 1873ms total)
T0340 002:729 JLINK_SetBPEx(Addr = 0x20000000, Type = 0xFFFFFFF2)  returns 0x0000000E (0000ms, 1873ms total)
T0340 002:729 JLINK_Go() -- CPU_ReadMem(4 bytes @ 0xE0001000) (0015ms, 1888ms total)
T0340 002:744 JLINK_IsHalted()  returns FALSE (0005ms, 1893ms total)
T0340 002:764 JLINK_IsHalted()  returns FALSE (0005ms, 1893ms total)
T0340 002:770 JLINK_IsHalted()  returns FALSE (0005ms, 1893ms total)
T0340 002:777 JLINK_IsHalted() -- CPU_ReadMem(2 bytes @ 0x20000000)  returns TRUE (0019ms, 1907ms total)
T0340 002:796 JLINK_ReadReg(R15 (PC))  returns 0x20000000 (0000ms, 1888ms total)
T0340 002:796 JLINK_ClrBPEx(BPHandle = 0x0000000E)  returns 0x00 (0000ms, 1888ms total)
T0340 002:796 JLINK_ReadReg(R0)  returns 0x00000000 (0000ms, 1888ms total)
T0340 002:797 JLINK_WriteMem(0x20000164, 0x0400 Bytes, ...) - Data: 45 F8 00 BF 01 21 05 48 00 F0 34 F8 00 28 F9 D0 ... -- CPU_WriteMem(1024 bytes @ 0x20000164)  returns 0x400 (0018ms, 1906ms total)
T0340 002:815 JLINK_WriteReg(R0, 0x08002800)  returns 0x00 (0000ms, 1906ms total)
T0340 002:815 JLINK_WriteReg(R1, 0x00000400)  returns 0x00 (0000ms, 1906ms total)
T0340 002:815 JLINK_WriteReg(R2, 0x20000164)  returns 0x00 (0000ms, 1906ms total)
T0340 002:815 JLINK_WriteReg(R3, 0x00000000)  returns 0x00 (0000ms, 1906ms total)
T0340 002:815 JLINK_WriteReg(R4, 0x00000000)  returns 0x00 (0000ms, 1906ms total)
T0340 002:815 JLINK_WriteReg(R5, 0x00000000)  returns 0x00 (0000ms, 1906ms total)
T0340 002:815 JLINK_WriteReg(R6, 0x00000000)  returns 0x00 (0000ms, 1906ms total)
T0340 002:815 JLINK_WriteReg(R7, 0x00000000)  returns 0x00 (0000ms, 1906ms total)
T0340 002:815 JLINK_WriteReg(R8, 0x00000000)  returns 0x00 (0000ms, 1906ms total)
T0340 002:815 JLINK_WriteReg(R9, 0x20000160)  returns 0x00 (0000ms, 1906ms total)
T0340 002:815 JLINK_WriteReg(R10, 0x00000000)  returns 0x00 (0001ms, 1907ms total)
T0340 002:816 JLINK_WriteReg(R11, 0x00000000)  returns 0x00 (0000ms, 1907ms total)
T0340 002:816 JLINK_WriteReg(R12, 0x00000000)  returns 0x00 (0000ms, 1907ms total)
T0340 002:816 JLINK_WriteReg(R13 (SP), 0x20000800)  returns 0x00 (0000ms, 1907ms total)
T0340 002:816 JLINK_WriteReg(R14, 0x20000001)  returns 0x00 (0000ms, 1907ms total)
T0340 002:816 JLINK_WriteReg(R15 (PC), 0x200000F4)  returns 0x00 (0000ms, 1907ms total)
T0340 002:816 JLINK_WriteReg(XPSR, 0x01000000)  returns 0x00 (0000ms, 1907ms total)
T0340 002:816 JLINK_WriteReg(MSP, 0x20000800)  returns 0x00 (0000ms, 1907ms total)
T0340 002:816 JLINK_WriteReg(PSP, 0x20000800)  returns 0x00 (0000ms, 1907ms total)
T0340 002:816 JLINK_WriteReg(CFBP, 0x00000000)  returns 0x00 (0000ms, 1907ms total)
T0340 002:816 JLINK_SetBPEx(Addr = 0x20000000, Type = 0xFFFFFFF2)  returns 0x0000000F (0000ms, 1907ms total)
T0340 002:816 JLINK_Go() -- CPU_ReadMem(4 bytes @ 0xE0001000) (0016ms, 1923ms total)
T0340 002:832 JLINK_IsHalted()  returns FALSE (0005ms, 1928ms total)
T0340 002:846 JLINK_IsHalted()  returns FALSE (0005ms, 1928ms total)
T0340 002:853 JLINK_IsHalted()  returns FALSE (0005ms, 1928ms total)
T0340 002:859 JLINK_IsHalted() -- CPU_ReadMem(2 bytes @ 0x20000000)  returns TRUE (0019ms, 1942ms total)
T0340 002:878 JLINK_ReadReg(R15 (PC))  returns 0x20000000 (0000ms, 1923ms total)
T0340 002:878 JLINK_ClrBPEx(BPHandle = 0x0000000F)  returns 0x00 (0000ms, 1923ms total)
T0340 002:878 JLINK_ReadReg(R0)  returns 0x00000000 (0000ms, 1923ms total)
T0340 002:879 JLINK_WriteMem(0x20000164, 0x0400 Bytes, ...) - Data: 01 FB 00 21 4F F4 00 10 FF F7 FC FA 49 E0 2F 48 ... -- CPU_WriteMem(1024 bytes @ 0x20000164)  returns 0x400 (0018ms, 1941ms total)
T0340 002:897 JLINK_WriteReg(R0, 0x08002C00)  returns 0x00 (0000ms, 1941ms total)
T0340 002:897 JLINK_WriteReg(R1, 0x00000400)  returns 0x00 (0000ms, 1941ms total)
T0340 002:897 JLINK_WriteReg(R2, 0x20000164)  returns 0x00 (0000ms, 1941ms total)
T0340 002:897 JLINK_WriteReg(R3, 0x00000000)  returns 0x00 (0000ms, 1941ms total)
T0340 002:897 JLINK_WriteReg(R4, 0x00000000)  returns 0x00 (0000ms, 1941ms total)
T0340 002:897 JLINK_WriteReg(R5, 0x00000000)  returns 0x00 (0000ms, 1941ms total)
T0340 002:897 JLINK_WriteReg(R6, 0x00000000)  returns 0x00 (0001ms, 1942ms total)
T0340 002:898 JLINK_WriteReg(R7, 0x00000000)  returns 0x00 (0000ms, 1942ms total)
T0340 002:898 JLINK_WriteReg(R8, 0x00000000)  returns 0x00 (0000ms, 1942ms total)
T0340 002:898 JLINK_WriteReg(R9, 0x20000160)  returns 0x00 (0000ms, 1942ms total)
T0340 002:898 JLINK_WriteReg(R10, 0x00000000)  returns 0x00 (0000ms, 1942ms total)
T0340 002:898 JLINK_WriteReg(R11, 0x00000000)  returns 0x00 (0000ms, 1942ms total)
T0340 002:898 JLINK_WriteReg(R12, 0x00000000)  returns 0x00 (0000ms, 1942ms total)
T0340 002:898 JLINK_WriteReg(R13 (SP), 0x20000800)  returns 0x00 (0000ms, 1942ms total)
T0340 002:898 JLINK_WriteReg(R14, 0x20000001)  returns 0x00 (0000ms, 1942ms total)
T0340 002:898 JLINK_WriteReg(R15 (PC), 0x200000F4)  returns 0x00 (0000ms, 1942ms total)
T0340 002:898 JLINK_WriteReg(XPSR, 0x01000000)  returns 0x00 (0000ms, 1942ms total)
T0340 002:898 JLINK_WriteReg(MSP, 0x20000800)  returns 0x00 (0000ms, 1942ms total)
T0340 002:898 JLINK_WriteReg(PSP, 0x20000800)  returns 0x00 (0000ms, 1942ms total)
T0340 002:898 JLINK_WriteReg(CFBP, 0x00000000)  returns 0x00 (0000ms, 1942ms total)
T0340 002:898 JLINK_SetBPEx(Addr = 0x20000000, Type = 0xFFFFFFF2)  returns 0x00000010 (0000ms, 1942ms total)
T0340 002:898 JLINK_Go() -- CPU_ReadMem(4 bytes @ 0xE0001000) (0016ms, 1958ms total)
T0340 002:914 JLINK_IsHalted()  returns FALSE (0005ms, 1963ms total)
T0340 002:926 JLINK_IsHalted()  returns FALSE (0005ms, 1963ms total)
T0340 002:932 JLINK_IsHalted()  returns FALSE (0005ms, 1963ms total)
T0340 002:940 JLINK_IsHalted()  returns FALSE (0005ms, 1963ms total)
T0340 002:946 JLINK_IsHalted() -- CPU_ReadMem(2 bytes @ 0x20000000)  returns TRUE (0019ms, 1977ms total)
T0340 002:965 JLINK_ReadReg(R15 (PC))  returns 0x20000000 (0000ms, 1958ms total)
T0340 002:965 JLINK_ClrBPEx(BPHandle = 0x00000010)  returns 0x00 (0000ms, 1958ms total)
T0340 002:965 JLINK_ReadReg(R0)  returns 0x00000000 (0000ms, 1958ms total)
T0340 002:966 JLINK_WriteMem(0x20000164, 0x0400 Bytes, ...) - Data: 0F 48 00 68 10 B1 0F 48 00 68 20 B9 0C 48 05 60 ... -- CPU_WriteMem(1024 bytes @ 0x20000164)  returns 0x400 (0019ms, 1977ms total)
T0340 002:985 JLINK_WriteReg(R0, 0x08003000)  returns 0x00 (0000ms, 1977ms total)
T0340 002:985 JLINK_WriteReg(R1, 0x00000400)  returns 0x00 (0000ms, 1977ms total)
T0340 002:985 JLINK_WriteReg(R2, 0x20000164)  returns 0x00 (0000ms, 1977ms total)
T0340 002:985 JLINK_WriteReg(R3, 0x00000000)  returns 0x00 (0000ms, 1977ms total)
T0340 002:985 JLINK_WriteReg(R4, 0x00000000)  returns 0x00 (0000ms, 1977ms total)
T0340 002:985 JLINK_WriteReg(R5, 0x00000000)  returns 0x00 (0000ms, 1977ms total)
